T182C 7820:597 SEGGER J-Link V4.98e Log File (0001ms, 52718ms total)
T182C 7820:597 DLL Compiled: May  5 2015 11:00:52 (0001ms, 52718ms total)
T182C 7820:597 Logging started @ 2016-05-19 21:03 (0001ms, 52718ms total)
T182C 7820:655 JLINK_ExecCommand("Device = AT91SAM4SD32C", ...)Device "ATSAM4SD32C" selected.  returns 0x00 (0001ms, 52719ms total)
T182C 7821:005 JLINK_ExecCommand("ProjectFile = T:\Entregas\Aula 11\Timer-Counter\jlink.config", ...)  returns 0x00 (0000ms, 52719ms total)
T182C 7821:018 JLINK_ExecCommand("Device = AT91SAM4SD32C", ...)Device "ATSAM4SD32C" selected.  returns 0x00 (0000ms, 52719ms total)
T182C 7821:018 JLINK_TIF_Select(JLINKARM_TIF_JTAG)  returns 0x00 (0000ms, 52719ms total)
T182C 7821:018 JLINK_GetIdData(...) ScanLen=4 NumDevices=1 aId[0]=0x4BA00477 aIrRead[0]=0 aScanLen[0]=0 aScanRead[0]=0 (0001ms, 52720ms total)
T182C 7821:019 JLINK_ConfigJTAG(IRPre = 0, DRPre = 0) (0000ms, 52720ms total)
T182C 7821:019 JLINK_SetSpeed(1000) (0000ms, 52720ms total)
T182C 7821:019 JLINK_ResetPullsRESET(OFF) (0000ms, 52720ms total)
T182C 7821:019 JLINK_Connect() >0x2F8 JTAG>TotalIRLen = 4, IRPrint = 0x01 >0x30 JTAG> >0x210 JTAG> >0x70 JTAG> >0x40 JTAG> >0x40 JTAG> >0x40 JTAG> >0x48 JTAG> >0x78 JTAG> >0x40 JTAG> >0x30 JTAG> >0x40 JTAG> >0x40 JTAG> >0x30 JTAG> >0x40 JTAG> >0x48 JTAG>Found Cortex-M4 r0p1, Little endian. -- CPU_WriteMem(4 bytes @ 0xE0002000) -- CPU_ReadMem(4 bytes @ 0xE000EDF0) -- CPU_ReadMem(4 bytes @ 0xE0002000)FPUnit: 6 code (BP) slots and 2 literal slots -- CPU_ReadMem(4 bytes @ 0xE000EDFC)
 -- CPU_ReadMem(4 bytes @ 0xE0001000) -- CPU_WriteMem(4 bytes @ 0xE0001000) -- CPU_ReadMem(4 bytes @ 0xE000ED88) -- CPU_WriteMem(4 bytes @ 0xE000ED88) -- CPU_ReadMem(4 bytes @ 0xE000ED88) -- CPU_WriteMem(4 bytes @ 0xE000ED88)CoreSight components:ROMTbl 0 @ E00FF000 -- CPU_ReadMem(16 bytes @ 0xE00FF000) -- CPU_ReadMem(16 bytes @ 0xE000EFF0) -- CPU_ReadMem(16 bytes @ 0xE000EFE0)ROMTbl 0 [0]: FFF0F000, CID: B105E00D, PID: 000BB000 SCS -- CPU_ReadMem(16 bytes @ 0xE0001FF0)
 -- CPU_ReadMem(16 bytes @ 0xE0001FE0)ROMTbl 0 [1]: FFF02000, CID: B105E00D, PID: 003BB002 DWT -- CPU_ReadMem(16 bytes @ 0xE0002FF0) -- CPU_ReadMem(16 bytes @ 0xE0002FE0)ROMTbl 0 [2]: FFF03000, CID: B105E00D, PID: 002BB003 FPB -- CPU_ReadMem(16 bytes @ 0xE0000FF0) -- CPU_ReadMem(16 bytes @ 0xE0000FE0)ROMTbl 0 [3]: FFF01000, CID: B105E00D, PID: 003BB001 ITM -- CPU_ReadMem(16 bytes @ 0xE00FF010) -- CPU_ReadMem(16 bytes @ 0xE0040FF0) -- CPU_ReadMem(16 bytes @ 0xE0040FE0)
ROMTbl 0 [4]: FFF41000, CID: B105900D, PID: 000BB9A1 TPIU  returns 0x00 (0035ms, 52755ms total)
T182C 7821:054 JLINK_WriteMem(0xE0001020, 0x0004 Bytes, ...) - Data: 00 00 00 00 -- CPU is running -- CPU_WriteMem(4 bytes @ 0xE0001020)  returns 0x04 (0001ms, 52756ms total)
T182C 7821:055 JLINK_WriteMem(0xE0001024, 0x0004 Bytes, ...) - Data: 00 00 00 00 -- CPU is running -- CPU_WriteMem(4 bytes @ 0xE0001024)  returns 0x04 (0001ms, 52757ms total)
T182C 7821:056 JLINK_WriteMem(0xE0001028, 0x0004 Bytes, ...) - Data: 00 00 00 00 -- CPU is running -- CPU_WriteMem(4 bytes @ 0xE0001028)  returns 0x04 (0001ms, 52758ms total)
T182C 7821:057 JLINK_WriteMem(0xE0001030, 0x0004 Bytes, ...) - Data: 00 00 00 00 -- CPU is running -- CPU_WriteMem(4 bytes @ 0xE0001030)  returns 0x04 (0001ms, 52759ms total)
T182C 7821:058 JLINK_WriteMem(0xE0001034, 0x0004 Bytes, ...) - Data: 00 00 00 00 -- CPU is running -- CPU_WriteMem(4 bytes @ 0xE0001034)  returns 0x04 (0001ms, 52760ms total)
T182C 7821:059 JLINK_WriteMem(0xE0001038, 0x0004 Bytes, ...) - Data: 00 00 00 00 -- CPU is running -- CPU_WriteMem(4 bytes @ 0xE0001038)  returns 0x04 (0000ms, 52760ms total)
T182C 7821:060 JLINK_WriteMem(0xE0001040, 0x0004 Bytes, ...) - Data: 00 00 00 00 -- CPU is running -- CPU_WriteMem(4 bytes @ 0xE0001040)  returns 0x04 (0000ms, 52760ms total)
T182C 7821:060 JLINK_WriteMem(0xE0001044, 0x0004 Bytes, ...) - Data: 00 00 00 00 -- CPU is running -- CPU_WriteMem(4 bytes @ 0xE0001044)  returns 0x04 (0001ms, 52761ms total)
T182C 7821:061 JLINK_WriteMem(0xE0001048, 0x0004 Bytes, ...) - Data: 00 00 00 00 -- CPU is running -- CPU_WriteMem(4 bytes @ 0xE0001048)  returns 0x04 (0001ms, 52762ms total)
T182C 7821:062 JLINK_WriteMem(0xE0001050, 0x0004 Bytes, ...) - Data: 00 00 00 00 -- CPU is running -- CPU_WriteMem(4 bytes @ 0xE0001050)  returns 0x04 (0001ms, 52763ms total)
T182C 7821:063 JLINK_WriteMem(0xE0001054, 0x0004 Bytes, ...) - Data: 00 00 00 00 -- CPU is running -- CPU_WriteMem(4 bytes @ 0xE0001054)  returns 0x04 (0001ms, 52764ms total)
T182C 7821:064 JLINK_WriteMem(0xE0001058, 0x0004 Bytes, ...) - Data: 00 00 00 00 -- CPU is running -- CPU_WriteMem(4 bytes @ 0xE0001058)  returns 0x04 (0001ms, 52765ms total)
T182C 7821:065 JLINK_Halt()  returns 0x00 (0008ms, 52773ms total)
T182C 7821:073 JLINK_WriteMem(0x400E0A04, 0x0004 Bytes, ...) - Data: 0B 01 00 5A -- CPU_WriteMem(4 bytes @ 0x400E0A04)  returns 0x04 (0001ms, 52774ms total)
T182C 7821:074 JLINK_ReadMem (0x400E0A08, 0x0004 Bytes, ...) -- CPU_ReadMem(4 bytes @ 0x400E0A08) - Data: 01 00 00 00  returns 0x00 (0001ms, 52775ms total)
T182C 7821:075 JLINK_WriteMem(0x400E0A04, 0x0004 Bytes, ...) - Data: 0C 02 00 5A -- CPU_WriteMem(4 bytes @ 0x400E0A04)  returns 0x04 (0001ms, 52776ms total)
T182C 7821:076 JLINK_ReadMem (0x400E0A08, 0x0004 Bytes, ...) -- CPU_ReadMem(4 bytes @ 0x400E0A08) - Data: 01 00 00 00  returns 0x00 (0001ms, 52777ms total)
T182C 7821:077 JLINK_Reset() -- CPU_ReadMem(16 bytes @ 0x20000000) -- CPU_WriteMem(16 bytes @ 0x20000000) -- CPU_ReadMem(4 bytes @ 0xE000EDFC) -- CPU_WriteMem(4 bytes @ 0xE000EDFC) -- CPU_ReadMem(4 bytes @ 0xE0001000) -- CPU_WriteMem(4 bytes @ 0xE000EDFC) -- CPU_WriteMem(16 bytes @ 0x20000000) -- CPU_WriteMem(4 bytes @ 0xE0002000) -- CPU_ReadMem(4 bytes @ 0xE000EDFC) -- CPU_ReadMem(4 bytes @ 0xE0001000) (0039ms, 52816ms total)
T0F88 7821:127 JLINK_IsHalted()  returns TRUE (0000ms, 52816ms total)
T0F88 7821:127 JLINK_GetMOEs(...) -- CPU_ReadMem(4 bytes @ 0xE000ED30) -- CPU_WriteMem(4 bytes @ 0xE000ED30)  returns 0x01 (0002ms, 52818ms total)
T0F88 7821:129 JLINK_ReadReg(R15 (PC))  returns 0x0040118C (0000ms, 52818ms total)
T182C 7821:131 JLINK_JTAG_GetDeviceID(DeviceIndex = 0)  returns 0x4BA00477 (0000ms, 52818ms total)
T182C 7821:131 JLINK_ReadMemU32(0x400E0740, 0x0001 Items, ...) -- CPU_ReadMem(4 bytes @ 0x400E0740) - Data: E0 0E A7 29  returns 0x01 (0001ms, 52819ms total)
T182C 7821:132 JLINK_ReadMemU32(0x400E0744, 0x0001 Items, ...) -- CPU_ReadMem(4 bytes @ 0x400E0744) - Data: 00 00 00 00  returns 0x01 (0002ms, 52821ms total)
T182C 7821:134 JLINK_WriteMem(0x400E0A04, 0x0004 Bytes, ...) - Data: 05 00 00 5A -- CPU_WriteMem(4 bytes @ 0x400E0A04)  returns 0x04 (0001ms, 52822ms total)
T182C 7821:135 JLINK_WriteMem(0x400E0C04, 0x0004 Bytes, ...) - Data: 05 00 00 5A -- CPU_WriteMem(4 bytes @ 0x400E0C04)  returns 0x04 (0000ms, 52822ms total)
T182C 7821:136 JLINK_ReadMem (0x400E0A08, 0x0004 Bytes, ...) -- CPU_ReadMem(4 bytes @ 0x400E0A08) - Data: 00 00 00 00  returns 0x00 (0001ms, 52824ms total)
T182C 7821:138 JLINK_ReadMem (0x400E0A08, 0x0004 Bytes, ...) -- CPU_ReadMem(4 bytes @ 0x400E0A08) - Data: 00 00 00 00  returns 0x00 (0002ms, 52826ms total)
T182C 7821:144 JLINK_ReadMem (0x400E0A08, 0x0004 Bytes, ...) -- CPU_ReadMem(4 bytes @ 0x400E0A08) - Data: 00 00 00 00  returns 0x00 (0001ms, 52827ms total)
T182C 7821:161 JLINK_ReadMem (0x400E0A08, 0x0004 Bytes, ...) -- CPU_ReadMem(4 bytes @ 0x400E0A08) - Data: 00 00 00 00  returns 0x00 (0001ms, 52828ms total)
T182C 7821:226 JLINK_ReadMem (0x400E0A08, 0x0004 Bytes, ...) -- CPU_ReadMem(4 bytes @ 0x400E0A08) - Data: 00 00 00 00  returns 0x00 (0001ms, 52829ms total)
T0F88 7821:329 JLINK_IsHalted()  returns TRUE (0000ms, 52829ms total)
T182C 7821:485 JLINK_ReadMem (0x400E0A08, 0x0004 Bytes, ...) -- CPU_ReadMem(4 bytes @ 0x400E0A08) - Data: 00 00 00 00  returns 0x00 (0001ms, 52830ms total)
T0F88 7821:529 JLINK_IsHalted()  returns TRUE (0000ms, 52830ms total)
T0F88 7821:729 JLINK_IsHalted()  returns TRUE (0001ms, 52831ms total)
T0F88 7821:930 JLINK_IsHalted()  returns TRUE (0000ms, 52830ms total)
T0F88 7822:130 JLINK_IsHalted()  returns TRUE (0000ms, 52830ms total)
T0F88 7822:332 JLINK_IsHalted()  returns TRUE (0001ms, 52831ms total)
T182C 7822:486 JLINK_ReadMem (0x400E0A08, 0x0004 Bytes, ...) -- CPU_ReadMem(4 bytes @ 0x400E0A08) - Data: 00 00 00 00  returns 0x00 (0001ms, 52831ms total)
T182C 7822:487 JLINK_ReadMem (0x400E0C08, 0x0004 Bytes, ...) -- CPU_ReadMem(4 bytes @ 0x400E0C08) - Data: 00 00 00 00  returns 0x00 (0001ms, 52832ms total)
T182C 7822:489 JLINK_ReadMem (0x400E0C08, 0x0004 Bytes, ...) -- CPU_ReadMem(4 bytes @ 0x400E0C08) - Data: 00 00 00 00  returns 0x00 (0001ms, 52833ms total)
T182C 7822:494 JLINK_ReadMem (0x400E0C08, 0x0004 Bytes, ...) -- CPU_ReadMem(4 bytes @ 0x400E0C08) - Data: 00 00 00 00  returns 0x00 (0001ms, 52834ms total)
T182C 7822:511 JLINK_ReadMem (0x400E0C08, 0x0004 Bytes, ...) -- CPU_ReadMem(4 bytes @ 0x400E0C08) - Data: 00 00 00 00  returns 0x00 (0001ms, 52835ms total)
T0F88 7822:533 JLINK_IsHalted()  returns TRUE (0000ms, 52835ms total)
T182C 7822:576 JLINK_ReadMem (0x400E0C08, 0x0004 Bytes, ...) -- CPU_ReadMem(4 bytes @ 0x400E0C08) - Data: 00 00 00 00  returns 0x00 (0001ms, 52836ms total)
T0F88 7822:733 JLINK_IsHalted()  returns TRUE (0000ms, 52836ms total)
T182C 7822:833 JLINK_ReadMem (0x400E0C08, 0x0004 Bytes, ...) -- CPU_ReadMem(4 bytes @ 0x400E0C08) - Data: 00 00 00 00  returns 0x00 (0001ms, 52837ms total)
T0F88 7822:933 JLINK_IsHalted()  returns TRUE (0001ms, 52838ms total)
T0F88 7823:134 JLINK_IsHalted()  returns TRUE (0000ms, 52837ms total)
T0F88 7823:334 JLINK_IsHalted()  returns TRUE (0000ms, 52837ms total)
T0F88 7823:534 JLINK_IsHalted()  returns TRUE (0000ms, 52837ms total)
T0F88 7823:734 JLINK_IsHalted()  returns TRUE (0000ms, 52837ms total)
T182C 7823:834 JLINK_ReadMem (0x400E0C08, 0x0004 Bytes, ...) -- CPU_ReadMem(4 bytes @ 0x400E0C08) - Data: 00 00 00 00  returns 0x00 (0001ms, 52838ms total)
T182C 7823:835 JLINK_ReadMem (0x400E0A08, 0x0004 Bytes, ...) -- CPU_ReadMem(4 bytes @ 0x400E0A08) - Data: 00 00 00 00  returns 0x00 (0001ms, 52839ms total)
T182C 7823:837 JLINK_ReadMem (0x400E0A08, 0x0004 Bytes, ...) -- CPU_ReadMem(4 bytes @ 0x400E0A08) - Data: 00 00 00 00  returns 0x00 (0001ms, 52840ms total)
T182C 7823:842 JLINK_ReadMem (0x400E0A08, 0x0004 Bytes, ...) -- CPU_ReadMem(4 bytes @ 0x400E0A08) - Data: 00 00 00 00  returns 0x00 (0001ms, 52841ms total)
T182C 7823:859 JLINK_ReadMem (0x400E0A08, 0x0004 Bytes, ...) -- CPU_ReadMem(4 bytes @ 0x400E0A08) - Data: 00 00 00 00  returns 0x00 (0001ms, 52842ms total)
T182C 7823:924 JLINK_ReadMem (0x400E0A08, 0x0004 Bytes, ...) -- CPU_ReadMem(4 bytes @ 0x400E0A08) - Data: 00 00 00 00  returns 0x00 (0001ms, 52843ms total)
T0F88 7823:934 JLINK_IsHalted()  returns TRUE (0000ms, 52843ms total)
T0F88 7824:134 JLINK_IsHalted()  returns TRUE (0000ms, 52843ms total)
T182C 7824:181 JLINK_ReadMem (0x400E0A08, 0x0004 Bytes, ...) -- CPU_ReadMem(4 bytes @ 0x400E0A08) - Data: 00 00 00 00  returns 0x00 (0001ms, 52844ms total)
T0F88 7824:334 JLINK_IsHalted()  returns TRUE (0000ms, 52844ms total)
T0F88 7824:534 JLINK_IsHalted()  returns TRUE (0000ms, 52844ms total)
T0F88 7824:734 JLINK_IsHalted()  returns TRUE (0000ms, 52844ms total)
T0F88 7824:934 JLINK_IsHalted()  returns TRUE (0000ms, 52844ms total)
T0F88 7825:134 JLINK_IsHalted()  returns TRUE (0000ms, 52844ms total)
T182C 7825:182 JLINK_ReadMem (0x400E0A08, 0x0004 Bytes, ...) -- CPU_ReadMem(4 bytes @ 0x400E0A08) - Data: 00 00 00 00  returns 0x00 (0001ms, 52845ms total)
T182C 7825:183 JLINK_ReadMem (0x400E0C08, 0x0004 Bytes, ...) -- CPU_ReadMem(4 bytes @ 0x400E0C08) - Data: 01 00 00 00  returns 0x00 (0001ms, 52846ms total)
T182C 7825:184 JLINK_ReadMem (0x400E0A08, 0x0004 Bytes, ...) -- CPU_ReadMem(4 bytes @ 0x400E0A08) - Data: 00 00 00 00  returns 0x00 (0001ms, 52847ms total)
T182C 7825:186 JLINK_ReadMem (0x400E0A08, 0x0004 Bytes, ...) -- CPU_ReadMem(4 bytes @ 0x400E0A08) - Data: 00 00 00 00  returns 0x00 (0001ms, 52848ms total)
T182C 7825:191 JLINK_ReadMem (0x400E0A08, 0x0004 Bytes, ...) -- CPU_ReadMem(4 bytes @ 0x400E0A08) - Data: 00 00 00 00  returns 0x00 (0001ms, 52849ms total)
T182C 7825:208 JLINK_ReadMem (0x400E0A08, 0x0004 Bytes, ...) -- CPU_ReadMem(4 bytes @ 0x400E0A08) - Data: 00 00 00 00  returns 0x00 (0001ms, 52850ms total)
T182C 7825:273 JLINK_ReadMem (0x400E0A08, 0x0004 Bytes, ...) -- CPU_ReadMem(4 bytes @ 0x400E0A08) - Data: 00 00 00 00  returns 0x00 (0001ms, 52851ms total)
T0F88 7825:334 JLINK_IsHalted()  returns TRUE (0001ms, 52852ms total)
T182C 7825:530 JLINK_ReadMem (0x400E0A08, 0x0004 Bytes, ...) -- CPU_ReadMem(4 bytes @ 0x400E0A08) - Data: 01 00 00 00  returns 0x00 (0001ms, 52852ms total)
T0F88 7825:535 JLINK_IsHalted()  returns TRUE (0000ms, 52852ms total)
T182C 7825:540 JLINK_ResetPullsRESET(ON) (0000ms, 52852ms total)
T182C 7825:540 JLINK_ResetNoHalt() >0x2F8 JTAG>TotalIRLen = 4, IRPrint = 0x01 >0x30 JTAG> >0x210 JTAG> >0x70 JTAG> >0x40 JTAG> >0x40 JTAG> >0x40 JTAG> >0x48 JTAG> >0x78 JTAG> >0x40 JTAG> >0x30 JTAG> >0x40 JTAG> >0x40 JTAG> >0x30 JTAG> >0x40 JTAG> >0x48 JTAG>Found Cortex-M4 r0p1, Little endian. -- CPU_WriteMem(4 bytes @ 0xE0002000) -- CPU_ReadMem(4 bytes @ 0xE000EDF0) -- CPU_ReadMem(4 bytes @ 0xE0002000)FPUnit: 6 code (BP) slots and 2 literal slots -- CPU_ReadMem(4 bytes @ 0xE000EDFC)
 -- CPU_ReadMem(4 bytes @ 0xE0001000) -- CPU_ReadMem(4 bytes @ 0xE000ED88) -- CPU_WriteMem(4 bytes @ 0xE000ED88) -- CPU_ReadMem(4 bytes @ 0xE000ED88) -- CPU_WriteMem(4 bytes @ 0xE000ED88)CoreSight components:ROMTbl 0 @ E00FF000 -- CPU_ReadMem(16 bytes @ 0xE00FF000) -- CPU_ReadMem(16 bytes @ 0xE000EFF0) -- CPU_ReadMem(16 bytes @ 0xE000EFE0)ROMTbl 0 [0]: FFF0F000, CID: B105E00D, PID: 000BB000 SCS -- CPU_WriteMem(4 bytes @ 0xE0001000) -- CPU_ReadMem(16 bytes @ 0xE0001FF0)
 -- CPU_ReadMem(16 bytes @ 0xE0001FE0)ROMTbl 0 [1]: FFF02000, CID: B105E00D, PID: 003BB002 DWT -- CPU_ReadMem(16 bytes @ 0xE0002FF0) -- CPU_ReadMem(16 bytes @ 0xE0002FE0)ROMTbl 0 [2]: FFF03000, CID: B105E00D, PID: 002BB003 FPB -- CPU_ReadMem(16 bytes @ 0xE0000FF0) -- CPU_ReadMem(16 bytes @ 0xE0000FE0)ROMTbl 0 [3]: FFF01000, CID: B105E00D, PID: 003BB001 ITM -- CPU_ReadMem(16 bytes @ 0xE00FF010) -- CPU_ReadMem(16 bytes @ 0xE0040FF0) -- CPU_ReadMem(16 bytes @ 0xE0040FE0)
ROMTbl 0 [4]: FFF41000, CID: B105900D, PID: 000BB9A1 TPIU
                JLINK_Reset() -- CPU_ReadMem(16 bytes @ 0x20000000) -- CPU_WriteMem(16 bytes @ 0x20000000) -- CPU_ReadMem(4 bytes @ 0xE000EDFC) -- CPU_WriteMem(4 bytes @ 0xE000EDFC) -- CPU_ReadMem(4 bytes @ 0xE0001000) -- CPU_WriteMem(4 bytes @ 0xE0001004) -- CPU_WriteMem(4 bytes @ 0xE000EDFC) -- CPU_WriteMem(16 bytes @ 0x20000000) -- CPU_WriteMem(4 bytes @ 0xE0002000) -- CPU_ReadMem(4 bytes @ 0xE000EDFC) -- CPU_ReadMem(4 bytes @ 0xE0001000) (0041ms, 0041ms total)
                JLINK_Go() -- CPU_ReadMem(4 bytes @ 0xE0001000) -- CPU_WriteMem(4 bytes @ 0xE0002008) -- CPU_WriteMem(4 bytes @ 0xE000200C) -- CPU_WriteMem(4 bytes @ 0xE0002010) -- CPU_WriteMem(4 bytes @ 0xE0002014) -- CPU_WriteMem(4 bytes @ 0xE0002018) -- CPU_WriteMem(4 bytes @ 0xE000201C) -- CPU_WriteMem(4 bytes @ 0xE0001004) (0006ms, 0047ms total)
               (0111ms, 52963ms total)
T182C 7825:651 JLINK_ExecCommand("ProjectFile = T:\Entregas\Aula 11\Timer-Counter\jlink.config", ...)  returns 0x00 (0001ms, 52964ms total)
T182C 7825:679 JLINK_ExecCommand("Device = AT91SAM4SD32C", ...)Device "ATSAM4SD32C" selected.  returns 0x00 (0000ms, 52964ms total)
T182C 7825:679 JLINK_TIF_Select(JLINKARM_TIF_JTAG)  returns 0x00 (0000ms, 52964ms total)
T182C 7825:679 JLINK_GetIdData(...) ScanLen=4 NumDevices=1 aId[0]=0x4BA00477 aIrRead[0]=0 aScanLen[0]=0 aScanRead[0]=0 (0000ms, 52964ms total)
T182C 7825:679 JLINK_ConfigJTAG(IRPre = 0, DRPre = 0) (0000ms, 52964ms total)
T182C 7825:679 JLINK_SetSpeed(4000) (0001ms, 52965ms total)
T182C 7825:680 JLINK_ResetPullsRESET(OFF) (0000ms, 52965ms total)
T182C 7825:680 JLINK_Connect() >0x2F8 JTAG>TotalIRLen = 4, IRPrint = 0x01 >0x30 JTAG> >0x210 JTAG> >0x70 JTAG> >0x40 JTAG> >0x40 JTAG> >0x40 JTAG> >0x48 JTAG> >0x78 JTAG> >0x40 JTAG> >0x30 JTAG> >0x40 JTAG> >0x40 JTAG> >0x30 JTAG> >0x40 JTAG> >0x48 JTAG>Found Cortex-M4 r0p1, Little endian. -- CPU_WriteMem(4 bytes @ 0xE0002000) -- CPU_ReadMem(4 bytes @ 0xE000EDF0) -- CPU_ReadMem(4 bytes @ 0xE0002000)FPUnit: 6 code (BP) slots and 2 literal slots -- CPU_ReadMem(4 bytes @ 0xE000EDFC)
 -- CPU_ReadMem(4 bytes @ 0xE0001000) -- CPU_WriteMem(4 bytes @ 0xE0001000) -- CPU_ReadMem(4 bytes @ 0xE000ED88) -- CPU_WriteMem(4 bytes @ 0xE000ED88) -- CPU_ReadMem(4 bytes @ 0xE000ED88) -- CPU_WriteMem(4 bytes @ 0xE000ED88)CoreSight components:ROMTbl 0 @ E00FF000 -- CPU_ReadMem(16 bytes @ 0xE00FF000) -- CPU_ReadMem(16 bytes @ 0xE000EFF0) -- CPU_ReadMem(16 bytes @ 0xE000EFE0)ROMTbl 0 [0]: FFF0F000, CID: B105E00D, PID: 000BB000 SCS -- CPU_ReadMem(16 bytes @ 0xE0001FF0)
 -- CPU_ReadMem(16 bytes @ 0xE0001FE0)ROMTbl 0 [1]: FFF02000, CID: B105E00D, PID: 003BB002 DWT -- CPU_ReadMem(16 bytes @ 0xE0002FF0) -- CPU_ReadMem(16 bytes @ 0xE0002FE0)ROMTbl 0 [2]: FFF03000, CID: B105E00D, PID: 002BB003 FPB -- CPU_ReadMem(16 bytes @ 0xE0000FF0) -- CPU_ReadMem(16 bytes @ 0xE0000FE0)ROMTbl 0 [3]: FFF01000, CID: B105E00D, PID: 003BB001 ITM -- CPU_ReadMem(16 bytes @ 0xE00FF010) -- CPU_ReadMem(16 bytes @ 0xE0040FF0) -- CPU_ReadMem(16 bytes @ 0xE0040FE0)
ROMTbl 0 [4]: FFF41000, CID: B105900D, PID: 000BB9A1 TPIU  returns 0x00 (0023ms, 52988ms total)
T182C 7825:703 JLINK_WriteMem(0xE0001020, 0x0004 Bytes, ...) - Data: 00 00 00 00 -- CPU is running -- CPU_WriteMem(4 bytes @ 0xE0001020)  returns 0x04 (0001ms, 52989ms total)
T182C 7825:704 JLINK_WriteMem(0xE0001024, 0x0004 Bytes, ...) - Data: 00 00 00 00 -- CPU is running -- CPU_WriteMem(4 bytes @ 0xE0001024)  returns 0x04 (0001ms, 52990ms total)
T182C 7825:705 JLINK_WriteMem(0xE0001028, 0x0004 Bytes, ...) - Data: 00 00 00 00 -- CPU is running -- CPU_WriteMem(4 bytes @ 0xE0001028)  returns 0x04 (0000ms, 52990ms total)
T182C 7825:705 JLINK_WriteMem(0xE0001030, 0x0004 Bytes, ...) - Data: 00 00 00 00 -- CPU is running -- CPU_WriteMem(4 bytes @ 0xE0001030)  returns 0x04 (0001ms, 52991ms total)
T182C 7825:706 JLINK_WriteMem(0xE0001034, 0x0004 Bytes, ...) - Data: 00 00 00 00 -- CPU is running -- CPU_WriteMem(4 bytes @ 0xE0001034)  returns 0x04 (0001ms, 52992ms total)
T182C 7825:707 JLINK_WriteMem(0xE0001038, 0x0004 Bytes, ...) - Data: 00 00 00 00 -- CPU is running -- CPU_WriteMem(4 bytes @ 0xE0001038)  returns 0x04 (0000ms, 52992ms total)
T182C 7825:707 JLINK_WriteMem(0xE0001040, 0x0004 Bytes, ...) - Data: 00 00 00 00 -- CPU is running -- CPU_WriteMem(4 bytes @ 0xE0001040)  returns 0x04 (0001ms, 52993ms total)
T182C 7825:708 JLINK_WriteMem(0xE0001044, 0x0004 Bytes, ...) - Data: 00 00 00 00 -- CPU is running -- CPU_WriteMem(4 bytes @ 0xE0001044)  returns 0x04 (0000ms, 52993ms total)
T182C 7825:708 JLINK_WriteMem(0xE0001048, 0x0004 Bytes, ...) - Data: 00 00 00 00 -- CPU is running -- CPU_WriteMem(4 bytes @ 0xE0001048)  returns 0x04 (0001ms, 52994ms total)
T182C 7825:709 JLINK_WriteMem(0xE0001050, 0x0004 Bytes, ...) - Data: 00 00 00 00 -- CPU is running -- CPU_WriteMem(4 bytes @ 0xE0001050)  returns 0x04 (0001ms, 52995ms total)
T182C 7825:710 JLINK_WriteMem(0xE0001054, 0x0004 Bytes, ...) - Data: 00 00 00 00 -- CPU is running -- CPU_WriteMem(4 bytes @ 0xE0001054)  returns 0x04 (0001ms, 52996ms total)
T182C 7825:711 JLINK_WriteMem(0xE0001058, 0x0004 Bytes, ...) - Data: 00 00 00 00 -- CPU is running -- CPU_WriteMem(4 bytes @ 0xE0001058)  returns 0x04 (0000ms, 52996ms total)
T182C 7825:711 JLINK_Halt()  returns 0x00 (0004ms, 53000ms total)
T182C 7825:715 JLINK_WriteMem(0x400E0A04, 0x0004 Bytes, ...) - Data: 0B 01 00 5A -- CPU_WriteMem(4 bytes @ 0x400E0A04)  returns 0x04 (0001ms, 53001ms total)
T182C 7825:716 JLINK_ReadMem (0x400E0A08, 0x0004 Bytes, ...) -- CPU_ReadMem(4 bytes @ 0x400E0A08) - Data: 01 00 00 00  returns 0x00 (0000ms, 53001ms total)
T182C 7825:716 JLINK_WriteMem(0x400E0A04, 0x0004 Bytes, ...) - Data: 0C 02 00 5A -- CPU_WriteMem(4 bytes @ 0x400E0A04)  returns 0x04 (0001ms, 53002ms total)
T182C 7825:717 JLINK_ReadMem (0x400E0A08, 0x0004 Bytes, ...) -- CPU_ReadMem(4 bytes @ 0x400E0A08) - Data: 01 00 00 00  returns 0x00 (0001ms, 53003ms total)
T182C 7825:718 JLINK_Reset() -- CPU_ReadMem(16 bytes @ 0x20000000) -- CPU_WriteMem(16 bytes @ 0x20000000) -- CPU_ReadMem(4 bytes @ 0xE000EDFC) -- CPU_WriteMem(4 bytes @ 0xE000EDFC) -- CPU_ReadMem(4 bytes @ 0xE0001000) -- CPU_WriteMem(4 bytes @ 0xE000EDFC) -- CPU_WriteMem(16 bytes @ 0x20000000) -- CPU_WriteMem(4 bytes @ 0xE0002000) -- CPU_ReadMem(4 bytes @ 0xE000EDFC) -- CPU_ReadMem(4 bytes @ 0xE0001000) (0023ms, 53026ms total)
T1F28 7825:753 JLINK_IsHalted()  returns TRUE (0000ms, 53026ms total)
T1F28 7825:753 JLINK_GetMOEs(...) -- CPU_ReadMem(4 bytes @ 0xE000ED30) -- CPU_WriteMem(4 bytes @ 0xE000ED30)  returns 0x01 (0001ms, 53027ms total)
T1F28 7825:754 JLINK_ReadReg(R15 (PC))  returns 0xFFFFFFFE (0000ms, 53027ms total)
T182C 7825:761 JLINK_JTAG_GetDeviceID(DeviceIndex = 0)  returns 0x4BA00477 (0000ms, 53027ms total)
T182C 7825:761 JLINK_ReadMemU32(0x400E0740, 0x0001 Items, ...) -- CPU_ReadMem(4 bytes @ 0x400E0740) - Data: E0 0E A7 29  returns 0x01 (0001ms, 53028ms total)
T182C 7825:762 JLINK_ReadMemU32(0x400E0744, 0x0001 Items, ...) -- CPU_ReadMem(4 bytes @ 0x400E0744) - Data: 00 00 00 00  returns 0x01 (0001ms, 53029ms total)
T182C 7825:869 JLINK_BeginDownload(Flags = 0x00) (0000ms, 53029ms total)
T182C 7825:869 JLINK_WriteMem(0x00400000, 0x4000 Bytes, ...) - Data: A8 39 00 20 D9 0B 40 00 A1 0C 40 00 A1 0C 40 00 ...  returns 0x4000 (0000ms, 53029ms total)
T182C 7825:869 JLINK_WriteMem(0x00404000, 0x1FCC Bytes, ...) - Data: DA F8 00 10 EE E6 B2 F5 AA 7F 04 D8 DA 0B 77 32 ...  returns 0x1FCC (0000ms, 53029ms total)
T182C 7825:869 JLINK_WriteMem(0x00405FCC, 0x0008 Bytes, ...) - Data: 40 F9 FF 7F 01 00 00 00  returns 0x08 (0000ms, 53029ms total)
T182C 7825:869 JLINK_WriteMem(0x00405FD4, 0x087C Bytes, ...) - Data: 00 09 3D 00 00 00 00 00 00 00 00 00 F4 02 00 20 ...  returns 0x87C (0000ms, 53029ms total)
T1F28 7825:954 JLINK_IsHalted()  returns TRUE (0000ms, 53029ms total)
T23FC 7826:020 JLINK_Halt()  returns 0x00 (0000ms, 53029ms total)
T23FC 7826:021 JLINK_ReadReg(R15 (PC)) -- -------------------------------------- -- Start of determining dirty areas in flash cache -- End of determining dirty areas -- Start of preparing flash programming -- Calculating RAM usage -- RAM usage = 3908 Bytes -- Preserving registers -- Preparing memory -- Determining CPU clock frequency -- CPU clock frequency: 4020 kHz -- CPU frequency = 4020 kHz -- Preparing target -- Preserving target memory used for RAMCode and buffer -- Downloading RAMCode
 -- Using alternate TurboMode RAMCode -- Checking target RAM -- Preparing RAMCode -- End of preparing flash programmingCPU is running at low speed (4020 kHz). -- CPU is running at 4020 kHz. -- Start of comparing flash -- Read back was estimated as fastest method -- Comparing range 0x400000 - 0x403FFF (32 Sectors, 16 KB), using multi-block CRC calculation -- CPU is running -- CPU_ReadMem(512 bytes @ 0x00400000) -- CPU is running -- CPU_ReadMem(512 bytes @ 0x00400200) -- CPU is running
 -- CPU_ReadMem(512 bytes @ 0x00400400) -- CPU is running -- CPU_ReadMem(512 bytes @ 0x00400600) -- CPU is running -- CPU_ReadMem(512 bytes @ 0x00400800) -- CPU is running -- CPU_ReadMem(512 bytes @ 0x00400A00) -- CPU is running -- CPU_ReadMem(512 bytes @ 0x00400C00) -- CPU is running -- CPU_ReadMem(512 bytes @ 0x00400E00) -- CPU is running -- CPU_ReadMem(512 bytes @ 0x00401000) -- CPU is running -- CPU_ReadMem(512 bytes @ 0x00401200) -- CPU is running -- CPU_ReadMem(512 bytes @ 0x00401400)
 -- CPU is running -- CPU_ReadMem(512 bytes @ 0x00401600) -- CPU is running -- CPU_ReadMem(512 bytes @ 0x00401800) -- CPU is running -- CPU_ReadMem(512 bytes @ 0x00401A00) -- CPU is running -- CPU_ReadMem(512 bytes @ 0x00401C00) -- CPU is running -- CPU_ReadMem(512 bytes @ 0x00401E00) -- CPU is running -- CPU_ReadMem(512 bytes @ 0x00402000) -- CPU is running -- CPU_ReadMem(512 bytes @ 0x00402200) -- CPU is running -- CPU_ReadMem(512 bytes @ 0x00402400) -- CPU is running
 -- CPU_ReadMem(512 bytes @ 0x00402600) -- CPU is running -- CPU_ReadMem(512 bytes @ 0x00402800) -- CPU is running -- CPU_ReadMem(512 bytes @ 0x00402A00) -- CPU is running -- CPU_ReadMem(512 bytes @ 0x00402C00) -- CPU is running -- CPU_ReadMem(512 bytes @ 0x00402E00) -- CPU is running -- CPU_ReadMem(512 bytes @ 0x00403000) -- CPU is running -- CPU_ReadMem(512 bytes @ 0x00403200) -- CPU is running -- CPU_ReadMem(512 bytes @ 0x00403400) -- CPU is running -- CPU_ReadMem(512 bytes @ 0x00403600)
 -- CPU is running -- CPU_ReadMem(512 bytes @ 0x00403800) -- CPU is running -- CPU_ReadMem(512 bytes @ 0x00403A00) -- CPU is running -- CPU_ReadMem(512 bytes @ 0x00403C00) -- CPU is running -- CPU_ReadMem(512 bytes @ 0x00403E00) -- CRC does not match for sectors 0-31 -- Comparing range 0x404000 - 0x406FFF (3 Sectors, 12 KB), using multi-block CRC calculation -- CPU is running -- CPU_ReadMem(4096 bytes @ 0x00404000) -- CPU is running -- CPU_ReadMem(4096 bytes @ 0x00405000) -- CPU is running
 -- CPU_ReadMem(4096 bytes @ 0x00406000) -- CRC does not match for sectors 0-2 -- End of comparing flash -- Start of erasing sectors -- End of erasing sectors -- Start of flash programming -- Programming range 0x00400000 - 0x00403FFF (032 Sectors, 16 KB) -- Programming range 0x00404000 - 0x00406FFF (003 Sectors, 12 KB) -- End of flash programming -- Flash programming performed for 2 ranges (28672 bytes) -- 0x400000 - 0x403FFF (032 Sectors, 16 KB) -- 0x404000 - 0x406FFF (003 Sectors, 12 KB)
 -- Start of verifying flash -- Checksum calculation was estimated as fastest method -- Checksum calculation was estimated as fastest method -- End of verifying flash -- Start of restoring -- Restore RAMCode -- Restore content of target memory -- Restore target -- Restore memory -- Restore content of registers -- End of restoring -- Total time needed: 0.703s (Prepare: 0.114s, Compare: 0.221s, Erase: 0.000s, Program: 0.310s, Verify: 0.018s, Restore: 0.038s)  returns 0xFFFFFFFE (0707ms, 53736ms total)
T1F28 7826:729 JLINK_IsHalted()  returns TRUE (0001ms, 53737ms total)
T23FC 7826:731 JLINK_ReadReg(R13 (SP))  returns 0xFFFFFFFC (0000ms, 53737ms total)
T23FC 7826:919 JLINK_ReadReg(R0)  returns 0x400E1400 (0000ms, 53737ms total)
T23FC 7826:919 JLINK_ReadReg(R1)  returns 0x40C00000 (0000ms, 53737ms total)
T23FC 7826:919 JLINK_ReadReg(R2)  returns 0xA5000005 (0000ms, 53737ms total)
T23FC 7826:919 JLINK_ReadReg(R3)  returns 0x0040175D (0000ms, 53737ms total)
T23FC 7826:919 JLINK_ReadReg(R4)  returns 0xE000E100 (0000ms, 53737ms total)
T23FC 7826:919 JLINK_ReadReg(R5)  returns 0x400E1200 (0000ms, 53737ms total)
T23FC 7826:919 JLINK_ReadReg(R6)  returns 0x00400CCD (0000ms, 53737ms total)
T23FC 7826:919 JLINK_ReadReg(R7)  returns 0x00400F45 (0000ms, 53737ms total)
T23FC 7826:919 JLINK_ReadReg(R8)  returns 0x00400C45 (0000ms, 53737ms total)
T23FC 7826:919 JLINK_ReadReg(R9)  returns 0x21F0DC8D (0000ms, 53737ms total)
T23FC 7826:920 JLINK_ReadReg(R10)  returns 0x8371533E (0000ms, 53737ms total)
T23FC 7826:920 JLINK_ReadReg(R11)  returns 0xA871157C (0000ms, 53737ms total)
T23FC 7826:920 JLINK_ReadReg(R12)  returns 0x004009C5 (0000ms, 53737ms total)
T23FC 7826:920 JLINK_ReadReg(R13 (SP))  returns 0xFFFFFFFC (0000ms, 53737ms total)
T23FC 7826:920 JLINK_ReadReg(R14)  returns 0xFFFFFFFF (0000ms, 53737ms total)
T23FC 7826:920 JLINK_ReadReg(R15 (PC))  returns 0xFFFFFFFE (0000ms, 53737ms total)
T23FC 7826:920 JLINK_ReadReg(XPSR)  returns 0x01000000 (0000ms, 53737ms total)
T23FC 7826:920 JLINK_ReadReg(MSP)  returns 0xFFFFFFFC (0000ms, 53737ms total)
T23FC 7826:920 JLINK_ReadReg(PSP)  returns 0x612000E0 (0000ms, 53737ms total)
T23FC 7826:920 JLINK_ReadReg(PRIMASK)  returns 0x00000000 (0000ms, 53737ms total)
T23FC 7826:920 JLINK_ReadReg(BASEPRI)  returns 0x00000000 (0000ms, 53737ms total)
T23FC 7826:920 JLINK_ReadReg(FAULTMASK)  returns 0x00000000 (0000ms, 53737ms total)
T23FC 7826:920 JLINK_ReadReg(CONTROL)  returns 0x00000000 (0000ms, 53737ms total)
T1F28 7826:930 JLINK_IsHalted()  returns TRUE (0000ms, 53737ms total)
T1F28 7827:131 JLINK_IsHalted()  returns TRUE (0000ms, 53737ms total)
T1F28 7827:331 JLINK_IsHalted()  returns TRUE (0000ms, 53737ms total)
T1F28 7827:531 JLINK_IsHalted()  returns TRUE (0001ms, 53738ms total)
T1F28 7827:732 JLINK_IsHalted()  returns TRUE (0000ms, 53737ms total)
T1F28 7827:932 JLINK_IsHalted()  returns TRUE (0001ms, 53738ms total)
T1F28 7828:133 JLINK_IsHalted()  returns TRUE (0000ms, 53737ms total)
T1F28 7828:334 JLINK_IsHalted()  returns TRUE (0000ms, 53737ms total)
T23FC 7828:351 JLINK_EndDownload()  returns 0x00 (0000ms, 53737ms total)
T23FC 7828:351 JLINK_Reset() -- CPU_ReadMem(16 bytes @ 0x20000000) -- CPU_WriteMem(16 bytes @ 0x20000000) -- CPU_ReadMem(4 bytes @ 0xE000EDFC) -- CPU_WriteMem(4 bytes @ 0xE000EDFC) -- CPU_ReadMem(4 bytes @ 0xE0001000) -- CPU_WriteMem(4 bytes @ 0xE000EDFC) -- CPU_WriteMem(16 bytes @ 0x20000000) -- CPU_WriteMem(4 bytes @ 0xE0002000) -- CPU_ReadMem(4 bytes @ 0xE000EDFC) -- CPU_ReadMem(4 bytes @ 0xE0001000) (0025ms, 53762ms total)
T1F28 7828:376 JLINK_IsHalted()  returns TRUE (0000ms, 53762ms total)
T1F28 7828:376 JLINK_GetMOEs(...) -- CPU_ReadMem(4 bytes @ 0xE000ED30) -- CPU_WriteMem(4 bytes @ 0xE000ED30)  returns 0x01 (0001ms, 53763ms total)
T1F28 7828:377 JLINK_ReadReg(R15 (PC))  returns 0x00400BD8 (0000ms, 53763ms total)
T23FC 7828:386 JLINK_ReadReg(R15 (PC))  returns 0x00400BD8 (0000ms, 53763ms total)
T23FC 7828:386 JLINK_ReadReg(R13 (SP))  returns 0x200039A8 (0000ms, 53763ms total)
T23FC 7828:396 JLINK_ReadMemHW(0x00400BD8, 0x0004 Bytes, ...) -- CPU_ReadMem(4 bytes @ 0x00400BD8) - Data: 80 B5 84 B0  returns 0x00 (0001ms, 53764ms total)
T23FC 7828:407 JLINK_ReadMemHW(0x004010C2, 0x0002 Bytes, ...) -- CPU_ReadMem(2 bytes @ 0x004010C2) - Data: 07 48  returns 0x00 (0000ms, 53764ms total)
T23FC 7828:408 JLINK_ReadMemHW(0x004010C4, 0x0002 Bytes, ...) -- CPU_ReadMem(2 bytes @ 0x004010C4) - Data: 00 21  returns 0x00 (0001ms, 53765ms total)
T23FC 7828:413 JLINK_ReadMemHW(0x004010C2, 0x0002 Bytes, ...) -- CPU_ReadMem(2 bytes @ 0x004010C2) - Data: 07 48  returns 0x00 (0001ms, 53766ms total)
T182C 7828:415 JLINK_SetBPEx(Addr = 0x004010C2, Type = 0xFFFFFFF2)  returns 0x00000030 (0000ms, 53766ms total)
T182C 7828:415 JLINK_GetBPInfo(BPHandle = 48)  returns 0x00 (0000ms, 53766ms total)
T23FC 7828:440 JLINK_ReadMemHW(0x0040108E, 0x0002 Bytes, ...) -- CPU_ReadMem(2 bytes @ 0x0040108E) - Data: 07 48  returns 0x00 (0001ms, 53767ms total)
T23FC 7828:441 JLINK_ReadMemHW(0x00401090, 0x0002 Bytes, ...) -- CPU_ReadMem(2 bytes @ 0x00401090) - Data: 00 21  returns 0x00 (0001ms, 53768ms total)
T23FC 7828:442 JLINK_ReadMemHW(0x0040108E, 0x0002 Bytes, ...) -- CPU_ReadMem(2 bytes @ 0x0040108E) - Data: 07 48  returns 0x00 (0001ms, 53769ms total)
T182C 7828:444 JLINK_SetBPEx(Addr = 0x0040108E, Type = 0xFFFFFFF2)  returns 0x00000031 (0000ms, 53769ms total)
T182C 7828:444 JLINK_GetBPInfo(BPHandle = 49)  returns 0x00 (0000ms, 53769ms total)
T23FC 7828:478 JLINK_ReadMemHW(0x004012B0, 0x0001 Bytes, ...) -- CPU_ReadMem(1 bytes @ 0x004012B0) - Data: 80  returns 0x00 (0001ms, 53770ms total)
T23FC 7828:510 JLINK_ReadReg(R15 (PC))  returns 0x00400BD8 (0000ms, 53770ms total)
T23FC 7828:510 JLINK_SetBPEx(Addr = 0x004012B0, Type = 0xFFFFFF02)  returns 0x00000032 (0000ms, 53770ms total)
T23FC 7828:510 JLINK_GetBPInfo(BPHandle = 50)  returns 0x00 (0000ms, 53770ms total)
T23FC 7828:510 JLINK_Go() -- CPU_ReadMem(4 bytes @ 0xE0001000) -- CPU_WriteMem(4 bytes @ 0xE0002008) -- CPU_WriteMem(4 bytes @ 0xE000200C) -- CPU_WriteMem(4 bytes @ 0xE0002010) -- CPU_WriteMem(4 bytes @ 0xE0002014) -- CPU_WriteMem(4 bytes @ 0xE0002018) -- CPU_WriteMem(4 bytes @ 0xE000201C) -- CPU_WriteMem(4 bytes @ 0xE0001004) (0004ms, 53774ms total)
T1F28 7828:514 JLINK_IsHalted()  returns FALSE (0001ms, 53775ms total)
T1F28 7828:535 JLINK_IsHalted()  returns TRUE (0004ms, 53778ms total)
T1F28 7828:539 JLINK_GetMOEs(...) -- CPU_ReadMem(4 bytes @ 0xE000ED30) -- CPU_WriteMem(4 bytes @ 0xE000ED30)  returns 0x01 (0001ms, 53775ms total)
T1F28 7828:540 JLINK_ReadReg(R15 (PC))  returns 0x004012B0 (0000ms, 53775ms total)
T1F28 7828:540 JLINK_GetBPInfo(BPHandle = 50)  returns 0x00 (0000ms, 53775ms total)
T1F28 7828:540 JLINK_ClrBPEx(BPHandle = 0x00000032)  returns 0x00 (0000ms, 53775ms total)
T23FC 7828:544 JLINK_ReadReg(R15 (PC))  returns 0x004012B0 (0000ms, 53775ms total)
T23FC 7828:544 JLINK_ReadReg(R13 (SP))  returns 0x20003990 (0000ms, 53775ms total)
T23FC 7828:544 JLINK_ReadMemHW(0x004012B0, 0x0004 Bytes, ...) -- CPU_ReadMem(4 bytes @ 0x004012B0) - Data: 80 B5 00 AF  returns 0x00 (0001ms, 53776ms total)
T23FC 7828:606 JLINK_ReadReg(R15 (PC))  returns 0x004012B0 (0000ms, 53776ms total)
T23FC 7828:606 JLINK_Go() -- CPU_ReadMem(4 bytes @ 0xE0001000) -- CPU_WriteMem(4 bytes @ 0xE0002010) (0002ms, 53778ms total)
T1F28 7828:608 JLINK_IsHalted()  returns FALSE (0001ms, 53779ms total)
T1F28 7828:649 JLINK_IsHalted()  returns FALSE (0000ms, 53778ms total)
T1F28 7828:809 JLINK_IsHalted()  returns FALSE (0000ms, 53778ms total)
T1F28 7829:449 JLINK_IsHalted()  returns FALSE (0000ms, 53778ms total)
T1F28 7830:089 JLINK_IsHalted()  returns FALSE (0000ms, 53778ms total)
T1F28 7830:729 JLINK_IsHalted()  returns FALSE (0000ms, 53778ms total)
T1F28 7831:369 JLINK_IsHalted()  returns FALSE (0001ms, 53779ms total)
T1F28 7832:010 JLINK_IsHalted()  returns FALSE (0000ms, 53778ms total)
T1F28 7832:650 JLINK_IsHalted()  returns FALSE (0001ms, 53779ms total)
T1F28 7833:291 JLINK_IsHalted()  returns TRUE (0004ms, 53782ms total)
T1F28 7833:295 JLINK_GetMOEs(...) -- CPU_ReadMem(4 bytes @ 0xE000ED30) -- CPU_WriteMem(4 bytes @ 0xE000ED30)  returns 0x01 (0002ms, 53780ms total)
T1F28 7833:297 JLINK_ReadReg(R15 (PC))  returns 0x004010C2 (0000ms, 53780ms total)
T23FC 7833:298 JLINK_ReadReg(R15 (PC))  returns 0x004010C2 (0000ms, 53780ms total)
T23FC 7833:299 JLINK_ReadReg(R13 (SP))  returns 0x20003938 (0000ms, 53781ms total)
T23FC 7833:300 JLINK_ReadMemHW(0x004010C2, 0x0004 Bytes, ...) -- CPU_ReadMem(4 bytes @ 0x004010C2) - Data: 07 48 00 21  returns 0x00 (0001ms, 53782ms total)
T23FC 7833:302 JLINK_ReadReg(R0)  returns 0x0000000D (0000ms, 53782ms total)
T23FC 7833:302 JLINK_ReadReg(R1)  returns 0x00001000 (0000ms, 53782ms total)
T23FC 7833:302 JLINK_ReadReg(R2)  returns 0x00001000 (0000ms, 53782ms total)
T23FC 7833:302 JLINK_ReadReg(R3)  returns 0x004010B9 (0000ms, 53782ms total)
T23FC 7833:303 JLINK_ReadReg(R4)  returns 0xE000E100 (0000ms, 53782ms total)
T23FC 7833:303 JLINK_ReadReg(R5)  returns 0x400E1200 (0000ms, 53782ms total)
T23FC 7833:303 JLINK_ReadReg(R6)  returns 0x00400CCD (0000ms, 53782ms total)
T23FC 7833:303 JLINK_ReadReg(R7)  returns 0x20003938 (0000ms, 53782ms total)
T23FC 7833:303 JLINK_ReadReg(R8)  returns 0x00400C45 (0000ms, 53782ms total)
T23FC 7833:303 JLINK_ReadReg(R9)  returns 0x21F0DC8D (0000ms, 53782ms total)
T23FC 7833:303 JLINK_ReadReg(R10)  returns 0x8371533E (0000ms, 53782ms total)
T23FC 7833:304 JLINK_ReadReg(R11)  returns 0xA871157C (0000ms, 53782ms total)
T23FC 7833:304 JLINK_ReadReg(R12)  returns 0x004009C5 (0000ms, 53782ms total)
T23FC 7833:304 JLINK_ReadReg(R13 (SP))  returns 0x20003938 (0000ms, 53782ms total)
T23FC 7833:304 JLINK_ReadReg(R14)  returns 0x00400703 (0000ms, 53782ms total)
T23FC 7833:304 JLINK_ReadReg(R15 (PC))  returns 0x004010C2 (0000ms, 53782ms total)
T23FC 7833:305 JLINK_ReadReg(XPSR)  returns 0x0100001D (0000ms, 53782ms total)
T23FC 7833:305 JLINK_ReadReg(MSP)  returns 0x20003938 (0000ms, 53782ms total)
T23FC 7833:305 JLINK_ReadReg(PSP)  returns 0x612000E0 (0000ms, 53782ms total)
T23FC 7833:305 JLINK_ReadReg(PRIMASK)  returns 0x00000000 (0000ms, 53782ms total)
T23FC 7833:306 JLINK_ReadReg(BASEPRI)  returns 0x00000000 (0000ms, 53782ms total)
T23FC 7833:306 JLINK_ReadReg(FAULTMASK)  returns 0x00000000 (0000ms, 53782ms total)
T23FC 7833:306 JLINK_ReadReg(CONTROL)  returns 0x00000000 (0000ms, 53782ms total)
T23FC 7833:307 JLINK_ReadMem (0x2000393C, 0x0004 Bytes, ...) -- CPU_ReadMem(64 bytes @ 0x20003900) -- Updating C cache (64 bytes @ 0x20003900) -- Read from C cache (4 bytes @ 0x2000393C) - Data: 0D 00 00 00  returns 0x00 (0002ms, 53784ms total)
T23FC 7833:310 JLINK_ReadMem (0x20003938, 0x0004 Bytes, ...) -- Read from C cache (4 bytes @ 0x20003938) - Data: 00 10 00 00  returns 0x00 (0000ms, 53784ms total)
T23FC 7833:312 JLINK_ReadMem (0x2000393C, 0x0004 Bytes, ...) -- Read from C cache (4 bytes @ 0x2000393C) - Data: 0D 00 00 00  returns 0x00 (0000ms, 53784ms total)
T23FC 7833:313 JLINK_ReadMem (0x20003938, 0x0004 Bytes, ...) -- Read from C cache (4 bytes @ 0x20003938) - Data: 00 10 00 00  returns 0x00 (0000ms, 53784ms total)
T23FC 7833:344 JLINK_ReadMem (0x20003944, 0x0004 Bytes, ...) -- CPU_ReadMem(64 bytes @ 0x20003940) -- Updating C cache (64 bytes @ 0x20003940) -- Read from C cache (4 bytes @ 0x20003944) - Data: 03 07 40 00  returns 0x00 (0001ms, 53785ms total)
T23FC 7833:355 JLINK_ReadMem (0x20003944, 0x0004 Bytes, ...) -- Read from C cache (4 bytes @ 0x20003944) - Data: 03 07 40 00  returns 0x00 (0000ms, 53785ms total)
T23FC 7833:355 JLINK_ReadMemHW(0x00400702, 0x0004 Bytes, ...) -- CPU_ReadMem(4 bytes @ 0x00400702) - Data: 13 4A BB 68  returns 0x00 (0001ms, 53786ms total)
T23FC 7833:357 JLINK_ReadMem (0x20003940, 0x0004 Bytes, ...) -- Read from C cache (4 bytes @ 0x20003940) - Data: 48 39 00 20  returns 0x00 (0000ms, 53786ms total)
T23FC 7833:358 JLINK_ReadMem (0x2000395C, 0x0004 Bytes, ...) -- Read from C cache (4 bytes @ 0x2000395C) - Data: 01 08 40 00  returns 0x00 (0000ms, 53786ms total)
T23FC 7833:358 JLINK_ReadMem (0x2000395C, 0x0004 Bytes, ...) -- Read from C cache (4 bytes @ 0x2000395C) - Data: 01 08 40 00  returns 0x00 (0000ms, 53786ms total)
T23FC 7833:359 JLINK_ReadMem (0x20003944, 0x0004 Bytes, ...) -- Read from C cache (4 bytes @ 0x20003944) - Data: 03 07 40 00  returns 0x00 (0000ms, 53786ms total)
T23FC 7833:360 JLINK_ReadMem (0x2000395C, 0x0004 Bytes, ...) -- Read from C cache (4 bytes @ 0x2000395C) - Data: 01 08 40 00  returns 0x00 (0000ms, 53786ms total)
T23FC 7833:360 JLINK_ReadMemHW(0x00400800, 0x0004 Bytes, ...) -- CPU_ReadMem(4 bytes @ 0x00400800) - Data: 80 BD 00 BF  returns 0x00 (0001ms, 53787ms total)
T23FC 7833:361 JLINK_ReadMem (0x20003958, 0x0004 Bytes, ...) -- Read from C cache (4 bytes @ 0x20003958) - Data: 60 39 00 20  returns 0x00 (0000ms, 53787ms total)
T23FC 7833:362 JLINK_ReadMem (0x20003964, 0x0004 Bytes, ...) -- Read from C cache (4 bytes @ 0x20003964) - Data: F9 FF FF FF  returns 0x00 (0000ms, 53787ms total)
T23FC 7833:362 JLINK_ReadMem (0x20003964, 0x0004 Bytes, ...) -- Read from C cache (4 bytes @ 0x20003964) - Data: F9 FF FF FF  returns 0x00 (0000ms, 53787ms total)
T23FC 7833:362 JLINK_ReadMem (0x2000395C, 0x0004 Bytes, ...) -- Read from C cache (4 bytes @ 0x2000395C) - Data: 01 08 40 00  returns 0x00 (0000ms, 53787ms total)
T23FC 7833:363 JLINK_ReadMem (0x20003964, 0x0004 Bytes, ...) -- Read from C cache (4 bytes @ 0x20003964) - Data: F9 FF FF FF  returns 0x00 (0000ms, 53787ms total)
T23FC 7833:363 JLINK_ReadMem (0x20003984, 0x0004 Bytes, ...) -- CPU_ReadMem(64 bytes @ 0x20003980) -- Updating C cache (64 bytes @ 0x20003980) -- Read from C cache (4 bytes @ 0x20003984) - Data: 00 00 00 01  returns 0x00 (0001ms, 53788ms total)
T23FC 7833:365 JLINK_ReadMem (0x20003980, 0x0004 Bytes, ...) -- Read from C cache (4 bytes @ 0x20003980) - Data: CC 12 40 00  returns 0x00 (0000ms, 53788ms total)
T23FC 7833:366 JLINK_ReadMemHW(0x004012CC, 0x0004 Bytes, ...) -- CPU_ReadMem(4 bytes @ 0x004012CC) - Data: FE E7 00 BF  returns 0x00 (0000ms, 53788ms total)
T23FC 7833:367 JLINK_ReadMem (0x20003960, 0x0004 Bytes, ...) -- Read from C cache (4 bytes @ 0x20003960) - Data: 88 39 00 20  returns 0x00 (0000ms, 53788ms total)
T23FC 7833:387 JLINK_ReadMem (0x2000393C, 0x0004 Bytes, ...) -- Read from C cache (4 bytes @ 0x2000393C) - Data: 0D 00 00 00  returns 0x00 (0000ms, 53788ms total)
T23FC 7833:388 JLINK_ReadMem (0x20003938, 0x0004 Bytes, ...) -- Read from C cache (4 bytes @ 0x20003938) - Data: 00 10 00 00  returns 0x00 (0000ms, 53788ms total)
T23FC 7833:388 JLINK_ReadMem (0x20003940, 0x0004 Bytes, ...) -- Read from C cache (4 bytes @ 0x20003940) - Data: 48 39 00 20  returns 0x00 (0000ms, 53788ms total)
T23FC 7833:389 JLINK_ReadMem (0x2000394C, 0x0004 Bytes, ...) -- Read from C cache (4 bytes @ 0x2000394C) - Data: 00 12 0E 40  returns 0x00 (0000ms, 53788ms total)
T23FC 7833:389 JLINK_ReadMem (0x20003940, 0x0004 Bytes, ...) -- Read from C cache (4 bytes @ 0x20003940) - Data: 48 39 00 20  returns 0x00 (0000ms, 53788ms total)
T23FC 7833:390 JLINK_ReadMem (0x20003948, 0x0004 Bytes, ...) -- Read from C cache (4 bytes @ 0x20003948) - Data: 0D 00 00 00  returns 0x00 (0000ms, 53788ms total)
T182C 7833:466 JLINK_ReadMem (0x40000000, 0x0044 Bytes, ...) -- CPU_ReadMem(68 bytes @ 0x40000000) - Data: 00 00 00 00 00 00 00 00 00 00 00 00 00 00 00 00 ...  returns 0x00 (0001ms, 53789ms total)
T182C 7833:472 JLINK_ReadMem (0x40000000, 0x0044 Bytes, ...) -- CPU_ReadMem(68 bytes @ 0x40000000) - Data: 00 00 00 00 00 00 00 00 00 00 00 00 00 00 00 00 ...  returns 0x00 (0002ms, 53791ms total)
T1F28 7833:497 JLINK_IsHalted()  returns TRUE (0000ms, 53791ms total)
T182C 7833:539 JLINK_GetDebugInfo(0x100) -- Value=0xE00FF003  returns 0x00 (0001ms, 53792ms total)
T182C 7833:540 JLINK_ReadMem (0xE00FFFF0, 0x0010 Bytes, ...) -- CPU_ReadMem(16 bytes @ 0xE00FFFF0) - Data: 0D 00 00 00 10 00 00 00 05 00 00 00 B1 00 00 00  returns 0x00 (0000ms, 53792ms total)
T182C 7833:540 JLINK_ReadMem (0xE00FFFD0, 0x0020 Bytes, ...) -- CPU_ReadMem(32 bytes @ 0xE00FFFD0) - Data: 04 00 00 00 00 00 00 00 00 00 00 00 00 00 00 00 ...  returns 0x00 (0001ms, 53793ms total)
T182C 7833:541 JLINK_ReadMemU32(0xE00FF000, 0x0001 Items, ...) -- CPU_ReadMem(4 bytes @ 0xE00FF000) - Data: 03 F0 F0 FF  returns 0x01 (0001ms, 53794ms total)
T182C 7833:542 JLINK_ReadMem (0xE000EFF0, 0x0010 Bytes, ...) -- CPU_ReadMem(16 bytes @ 0xE000EFF0) - Data: 0D 00 00 00 E0 00 00 00 05 00 00 00 B1 00 00 00  returns 0x00 (0001ms, 53795ms total)
T182C 7833:543 JLINK_ReadMem (0xE000EFD0, 0x0020 Bytes, ...) -- CPU_ReadMem(32 bytes @ 0xE000EFD0) - Data: 04 00 00 00 00 00 00 00 00 00 00 00 00 00 00 00 ...  returns 0x00 (0001ms, 53796ms total)
T182C 7833:544 JLINK_ReadMemU32(0xE00FF004, 0x0001 Items, ...) -- CPU_ReadMem(4 bytes @ 0xE00FF004) - Data: 03 20 F0 FF  returns 0x01 (0001ms, 53797ms total)
T182C 7833:545 JLINK_ReadMem (0xE0001FF0, 0x0010 Bytes, ...) -- CPU_ReadMem(16 bytes @ 0xE0001FF0) - Data: 0D 00 00 00 E0 00 00 00 05 00 00 00 B1 00 00 00  returns 0x00 (0001ms, 53798ms total)
T182C 7833:546 JLINK_ReadMem (0xE0001FD0, 0x0020 Bytes, ...) -- CPU_ReadMem(32 bytes @ 0xE0001FD0) - Data: 04 00 00 00 00 00 00 00 00 00 00 00 00 00 00 00 ...  returns 0x00 (0001ms, 53799ms total)
T182C 7833:547 JLINK_ReadMemU32(0xE00FF008, 0x0001 Items, ...) -- CPU_ReadMem(4 bytes @ 0xE00FF008) - Data: 03 30 F0 FF  returns 0x01 (0001ms, 53800ms total)
T182C 7833:548 JLINK_ReadMem (0xE0002FF0, 0x0010 Bytes, ...) -- CPU_ReadMem(16 bytes @ 0xE0002FF0) - Data: 0D 00 00 00 E0 00 00 00 05 00 00 00 B1 00 00 00  returns 0x00 (0001ms, 53801ms total)
T182C 7833:549 JLINK_ReadMem (0xE0002FD0, 0x0020 Bytes, ...) -- CPU_ReadMem(32 bytes @ 0xE0002FD0) - Data: 04 00 00 00 00 00 00 00 00 00 00 00 00 00 00 00 ...  returns 0x00 (0001ms, 53802ms total)
T182C 7833:550 JLINK_ReadMemU32(0xE00FF00C, 0x0001 Items, ...) -- CPU_ReadMem(4 bytes @ 0xE00FF00C) - Data: 03 10 F0 FF  returns 0x01 (0000ms, 53802ms total)
T182C 7833:550 JLINK_ReadMem (0xE0000FF0, 0x0010 Bytes, ...) -- CPU_ReadMem(16 bytes @ 0xE0000FF0) - Data: 0D 00 00 00 E0 00 00 00 05 00 00 00 B1 00 00 00  returns 0x00 (0001ms, 53803ms total)
T182C 7833:551 JLINK_ReadMem (0xE0000FD0, 0x0020 Bytes, ...) -- CPU_ReadMem(32 bytes @ 0xE0000FD0) - Data: 04 00 00 00 00 00 00 00 00 00 00 00 00 00 00 00 ...  returns 0x00 (0002ms, 53805ms total)
T182C 7833:553 JLINK_ReadMemU32(0xE00FF010, 0x0001 Items, ...) -- CPU_ReadMem(4 bytes @ 0xE00FF010) - Data: 03 10 F4 FF  returns 0x01 (0001ms, 53806ms total)
T182C 7833:554 JLINK_ReadMem (0xE0040FF0, 0x0010 Bytes, ...) -- CPU_ReadMem(16 bytes @ 0xE0040FF0) - Data: 0D 00 00 00 90 00 00 00 05 00 00 00 B1 00 00 00  returns 0x00 (0001ms, 53807ms total)
T182C 7833:555 JLINK_ReadMem (0xE0040FD0, 0x0020 Bytes, ...) -- CPU_ReadMem(32 bytes @ 0xE0040FD0) - Data: 04 00 00 00 00 00 00 00 00 00 00 00 00 00 00 00 ...  returns 0x00 (0001ms, 53808ms total)
T182C 7833:556 JLINK_ReadMemU32(0xE00FF014, 0x0001 Items, ...) -- CPU_ReadMem(4 bytes @ 0xE00FF014) - Data: 02 20 F4 FF  returns 0x01 (0001ms, 53809ms total)
T182C 7833:557 JLINK_ReadMemU32(0xE00FF018, 0x0001 Items, ...) -- CPU_ReadMem(4 bytes @ 0xE00FF018) - Data: 00 00 00 00  returns 0x01 (0001ms, 53810ms total)
T182C 7833:558 JLINK_GetDebugInfo(0x100) -- Value=0xE00FF003  returns 0x00 (0000ms, 53810ms total)
T182C 7833:558 JLINK_ReadMem (0xE00FFFF0, 0x0010 Bytes, ...) -- CPU_ReadMem(16 bytes @ 0xE00FFFF0) - Data: 0D 00 00 00 10 00 00 00 05 00 00 00 B1 00 00 00  returns 0x00 (0001ms, 53811ms total)
T182C 7833:559 JLINK_ReadMem (0xE00FFFD0, 0x0020 Bytes, ...) -- CPU_ReadMem(32 bytes @ 0xE00FFFD0) - Data: 04 00 00 00 00 00 00 00 00 00 00 00 00 00 00 00 ...  returns 0x00 (0001ms, 53812ms total)
T182C 7833:560 JLINK_ReadMemU32(0xE00FF000, 0x0001 Items, ...) -- CPU_ReadMem(4 bytes @ 0xE00FF000) - Data: 03 F0 F0 FF  returns 0x01 (0001ms, 53813ms total)
T182C 7833:561 JLINK_ReadMem (0xE000EFF0, 0x0010 Bytes, ...) -- CPU_ReadMem(16 bytes @ 0xE000EFF0) - Data: 0D 00 00 00 E0 00 00 00 05 00 00 00 B1 00 00 00  returns 0x00 (0001ms, 53814ms total)
T182C 7833:562 JLINK_ReadMem (0xE000EFD0, 0x0020 Bytes, ...) -- CPU_ReadMem(32 bytes @ 0xE000EFD0) - Data: 04 00 00 00 00 00 00 00 00 00 00 00 00 00 00 00 ...  returns 0x00 (0001ms, 53815ms total)
T182C 7833:563 JLINK_ReadMemU32(0xE00FF004, 0x0001 Items, ...) -- CPU_ReadMem(4 bytes @ 0xE00FF004) - Data: 03 20 F0 FF  returns 0x01 (0001ms, 53816ms total)
T182C 7833:564 JLINK_ReadMem (0xE0001FF0, 0x0010 Bytes, ...) -- CPU_ReadMem(16 bytes @ 0xE0001FF0) - Data: 0D 00 00 00 E0 00 00 00 05 00 00 00 B1 00 00 00  returns 0x00 (0001ms, 53817ms total)
T182C 7833:565 JLINK_ReadMem (0xE0001FD0, 0x0020 Bytes, ...) -- CPU_ReadMem(32 bytes @ 0xE0001FD0) - Data: 04 00 00 00 00 00 00 00 00 00 00 00 00 00 00 00 ...  returns 0x00 (0002ms, 53819ms total)
T182C 7833:567 JLINK_ReadMemU32(0xE00FF008, 0x0001 Items, ...) -- CPU_ReadMem(4 bytes @ 0xE00FF008) - Data: 03 30 F0 FF  returns 0x01 (0001ms, 53820ms total)
T182C 7833:568 JLINK_ReadMem (0xE0002FF0, 0x0010 Bytes, ...) -- CPU_ReadMem(16 bytes @ 0xE0002FF0) - Data: 0D 00 00 00 E0 00 00 00 05 00 00 00 B1 00 00 00  returns 0x00 (0001ms, 53821ms total)
T182C 7833:569 JLINK_ReadMem (0xE0002FD0, 0x0020 Bytes, ...) -- CPU_ReadMem(32 bytes @ 0xE0002FD0) - Data: 04 00 00 00 00 00 00 00 00 00 00 00 00 00 00 00 ...  returns 0x00 (0001ms, 53822ms total)
T182C 7833:570 JLINK_ReadMemU32(0xE00FF00C, 0x0001 Items, ...) -- CPU_ReadMem(4 bytes @ 0xE00FF00C) - Data: 03 10 F0 FF  returns 0x01 (0001ms, 53823ms total)
T182C 7833:571 JLINK_ReadMem (0xE0000FF0, 0x0010 Bytes, ...) -- CPU_ReadMem(16 bytes @ 0xE0000FF0) - Data: 0D 00 00 00 E0 00 00 00 05 00 00 00 B1 00 00 00  returns 0x00 (0001ms, 53824ms total)
T182C 7833:572 JLINK_ReadMem (0xE0000FD0, 0x0020 Bytes, ...) -- CPU_ReadMem(32 bytes @ 0xE0000FD0) - Data: 04 00 00 00 00 00 00 00 00 00 00 00 00 00 00 00 ...  returns 0x00 (0001ms, 53825ms total)
T182C 7833:573 JLINK_ReadMemU32(0xE00FF010, 0x0001 Items, ...) -- CPU_ReadMem(4 bytes @ 0xE00FF010) - Data: 03 10 F4 FF  returns 0x01 (0001ms, 53826ms total)
T182C 7833:574 JLINK_ReadMem (0xE0040FF0, 0x0010 Bytes, ...) -- CPU_ReadMem(16 bytes @ 0xE0040FF0) - Data: 0D 00 00 00 90 00 00 00 05 00 00 00 B1 00 00 00  returns 0x00 (0001ms, 53827ms total)
T182C 7833:575 JLINK_ReadMem (0xE0040FD0, 0x0020 Bytes, ...) -- CPU_ReadMem(32 bytes @ 0xE0040FD0) - Data: 04 00 00 00 00 00 00 00 00 00 00 00 00 00 00 00 ...  returns 0x00 (0001ms, 53828ms total)
T182C 7833:576 JLINK_ReadMemU32(0xE00FF014, 0x0001 Items, ...) -- CPU_ReadMem(4 bytes @ 0xE00FF014) - Data: 02 20 F4 FF  returns 0x01 (0001ms, 53829ms total)
T182C 7833:577 JLINK_ReadMemU32(0xE00FF018, 0x0001 Items, ...) -- CPU_ReadMem(4 bytes @ 0xE00FF018) - Data: 00 00 00 00  returns 0x01 (0000ms, 53829ms total)
T182C 7833:577 JLINK_GetDebugInfo(0x100) -- Value=0xE00FF003  returns 0x00 (0000ms, 53829ms total)
T182C 7833:577 JLINK_ReadMem (0xE00FFFF0, 0x0010 Bytes, ...) -- CPU_ReadMem(16 bytes @ 0xE00FFFF0) - Data: 0D 00 00 00 10 00 00 00 05 00 00 00 B1 00 00 00  returns 0x00 (0001ms, 53830ms total)
T182C 7833:578 JLINK_ReadMem (0xE00FFFD0, 0x0020 Bytes, ...) -- CPU_ReadMem(32 bytes @ 0xE00FFFD0) - Data: 04 00 00 00 00 00 00 00 00 00 00 00 00 00 00 00 ...  returns 0x00 (0002ms, 53832ms total)
T182C 7833:580 JLINK_ReadMemU32(0xE00FF000, 0x0001 Items, ...) -- CPU_ReadMem(4 bytes @ 0xE00FF000) - Data: 03 F0 F0 FF  returns 0x01 (0001ms, 53833ms total)
T182C 7833:581 JLINK_ReadMem (0xE000EFF0, 0x0010 Bytes, ...) -- CPU_ReadMem(16 bytes @ 0xE000EFF0) - Data: 0D 00 00 00 E0 00 00 00 05 00 00 00 B1 00 00 00  returns 0x00 (0001ms, 53834ms total)
T182C 7833:582 JLINK_ReadMem (0xE000EFD0, 0x0020 Bytes, ...) -- CPU_ReadMem(32 bytes @ 0xE000EFD0) - Data: 04 00 00 00 00 00 00 00 00 00 00 00 00 00 00 00 ...  returns 0x00 (0001ms, 53835ms total)
T182C 7833:583 JLINK_ReadMemU32(0xE00FF004, 0x0001 Items, ...) -- CPU_ReadMem(4 bytes @ 0xE00FF004) - Data: 03 20 F0 FF  returns 0x01 (0001ms, 53836ms total)
T182C 7833:584 JLINK_ReadMem (0xE0001FF0, 0x0010 Bytes, ...) -- CPU_ReadMem(16 bytes @ 0xE0001FF0) - Data: 0D 00 00 00 E0 00 00 00 05 00 00 00 B1 00 00 00  returns 0x00 (0001ms, 53837ms total)
T182C 7833:585 JLINK_ReadMem (0xE0001FD0, 0x0020 Bytes, ...) -- CPU_ReadMem(32 bytes @ 0xE0001FD0) - Data: 04 00 00 00 00 00 00 00 00 00 00 00 00 00 00 00 ...  returns 0x00 (0001ms, 53838ms total)
